# GHZ S MA R 50.00000
 0.000000   0.000000    180.000000   1.000000      0.000000   1.000000      0.000000   0.000000     -0.000000
 0.050000   0.001817     83.793155   0.999998     -5.407600   0.999998     -5.407600   0.001817     85.391645
 0.100000   0.003626     77.585538   0.999993    -10.815175   0.999993    -10.815175   0.003626     80.784112
 0.150000   0.005417     71.376378   0.999985    -16.222701   0.999985    -16.222701   0.005417     76.178220
 0.200000   0.007181     65.164899   0.999974    -21.630155   0.999974    -21.630155   0.007181     71.574791
 0.250000   0.008910     58.950324   0.999960    -27.037515   0.999960    -27.037515   0.008910     66.974645
 0.300000   0.010597     52.731874   0.999944    -32.444762   0.999944    -32.444762   0.010597     62.378602
 0.350000   0.012232     46.508763   0.999925    -37.851878   0.999925    -37.851878   0.012232     57.787480
 0.400000   0.013809     40.280205   0.999905    -43.258850   0.999905    -43.258850   0.013809     53.202095
 0.450000   0.015319     34.045410   0.999883    -48.665665   0.999883    -48.665665   0.015319     48.623259
 0.500000   0.016756     27.803585   0.999860    -54.072317   0.999860    -54.072317   0.016756     44.051781
 0.550000   0.018114     21.553941   0.999836    -59.478800   0.999836    -59.478800   0.018114     39.488458
 0.600000   0.019387     15.295689   0.999812    -64.885115   0.999812    -64.885115   0.019387     34.934081
 0.650000   0.020569      9.028052   0.999788    -70.291263   0.999788    -70.291263   0.020569     30.389423
 0.700000   0.021655      2.750263   0.999765    -75.697251   0.999765    -75.697251   0.021655     25.855235
 0.750000   0.022643     -3.538422   0.999744    -81.103089   0.999744    -81.103089   0.022643     21.332244
 0.800000   0.023527     -9.838715   0.999723    -86.508789   0.999723    -86.508789   0.023527     16.821137
 0.850000   0.024305    -16.151286   0.999705    -91.914367   0.999705    -91.914367   0.024305     12.322553
 0.900000   0.024976    -22.476748   0.999688    -97.319841   0.999688    -97.319841   0.024976      7.837067
 0.950000   0.025537    -28.815632   0.999674   -102.725231   0.999674   -102.725231   0.025537      3.365171
 1.000000   0.025988    -35.168369   0.999662   -108.130559   0.999662   -108.130559   0.025988     -1.092749
 1.050000   0.026328    -41.535255   0.999653   -113.535848   0.999653   -113.535848   0.026328     -5.536440
 1.100000   0.026558    -47.916416   0.999647   -118.941122   0.999647   -118.941122   0.026558     -9.965828
 1.150000   0.026680    -54.311758   0.999644   -124.346405   0.999644   -124.346405   0.026680    -14.381052
 1.200000   0.026695    -60.720909   0.999644   -129.751721   0.999644   -129.751721   0.026695    -18.782532
 1.250000   0.026605    -67.143147   0.999646   -135.157093   0.999646   -135.157093   0.026605    -23.171039
 1.300000   0.026415    -73.577305   0.999651   -140.562545   0.999651   -140.562545   0.026415    -27.547784
 1.350000   0.026127    -80.021660   0.999659   -145.968096   0.999659   -145.968096   0.026127    -31.914533
 1.400000   0.025745    -86.473786   0.999669   -151.373768   0.999669   -151.373768   0.025745    -36.273751
 1.450000   0.025275    -92.930377   0.999681   -156.779577   0.999681   -156.779577   0.025275    -40.628778
 1.500000   0.024721    -99.387019   0.999694   -162.185540   0.999694   -162.185540   0.024721    -44.984062
 1.550000   0.024089   -105.837903   0.999710   -167.591670   0.999710   -167.591670   0.024089    -49.345437
 1.600000   0.023385   -112.275462   0.999727   -172.997978   0.999727   -172.997978   0.023385    -53.720494
 1.650000   0.022615   -118.689907   0.999744   -178.404474   0.999744   -178.404474   0.022615    -58.119042
 1.700000   0.021786   -125.068629   0.999763    176.188834   0.999763    176.188834   0.021786    -62.553703
 1.750000   0.020903   -131.395430   0.999782    170.781942   0.999782    170.781942   0.020903    -67.040686
 1.800000   0.019975   -137.649527   0.999800    165.374845   0.999800    165.374845   0.019975    -71.600783
 1.850000   0.019007   -143.804244   0.999819    159.967541   0.999819    159.967541   0.019007    -76.260674
 1.900000   0.018008   -149.825302   0.999838    154.560028   0.999838    154.560028   0.018008    -81.054641
 1.950000   0.016986   -155.668575   0.999856    149.152306   0.999856    149.152306   0.016986    -86.026812
 2.000000   0.015948   -161.277168   0.999873    143.744375   0.999873    143.744375   0.015948    -91.234082
 2.050000   0.014905   -166.577663   0.999889    138.336233   0.999889    138.336233   0.014905    -96.749871
 2.100000   0.013867   -171.475531   0.999904    132.927881   0.999904    132.927881   0.013867   -102.668706
 2.150000   0.012848   -175.850039   0.999917    127.519317   0.999917    127.519317   0.012848   -109.111327
 2.200000   0.011867   -179.550023   0.999930    122.110539   0.999930    122.110539   0.011867   -116.228900
 2.250000   0.010946    177.605777   0.999940    116.701543   0.999940    116.701543   0.010946   -124.202692
 2.300000   0.010117    175.815521   0.999949    111.292324   0.999949    111.292324   0.010117   -133.230872
 2.350000   0.009422    175.253413   0.999956    105.882877   0.999956    105.882877   0.009422   -143.487658
 2.400000   0.008911    175.984712   0.999960    100.473194   0.999960    100.473194   0.008911   -155.038324
 2.450000   0.008643    177.844313   0.999963     95.063265   0.999963     95.063265   0.008643   -167.717782
 2.500000   0.008667   -179.645490   0.999962     89.653081   0.999962     89.653081   0.008667    178.951652
 2.550000   0.009013   -177.194075   0.999959     84.242630   0.999959     84.242630   0.009013    165.679335
 2.600000   0.009680   -175.488493   0.999953     78.831901   0.999953     78.831901   0.009680    153.152295
 2.650000   0.010647   -174.957712   0.999943     73.420881   0.999943     73.420881   0.010647    141.799473
 2.700000   0.011877   -175.723067   0.999929     68.009558   0.999929     68.009558   0.011877    131.742184
 2.750000   0.013338   -177.694782   0.999911     62.597923   0.999911     62.597923   0.013338    122.890629
 2.800000   0.015002    179.309457   0.999887     57.185966   0.999887     57.185966   0.015002    115.062475
 2.850000   0.016848    175.486996   0.999858     51.773681   0.999858     51.773681   0.016848    108.060365
 2.900000   0.018863    171.014856   0.999822     46.361063   0.999822     46.361063   0.018863    101.707271
 2.950000   0.021035    166.039351   0.999779     40.948115   0.999779     40.948115   0.021035     95.856879
 3.000000   0.023359    160.676860   0.999727     35.534840   0.999727     35.534840   0.023359     90.392819
 3.050000   0.025829    155.018350   0.999666     30.121250   0.999666     30.121250   0.025829     85.224149
 3.100000   0.028441    149.134440   0.999595     24.707361   0.999595     24.707361   0.028441     80.280282
 3.150000   0.031192    143.079876   0.999513     19.293199   0.999513     19.293199   0.031192     75.506522
 3.200000   0.034077    136.897141   0.999419     13.878794   0.999419     13.878794   0.034077     70.860447
 3.250000   0.037093    130.619266   0.999312      8.464186   0.999312      8.464186   0.037093     66.309107
 3.300000   0.040235    124.271984   0.999190      3.049424   0.999190      3.049424   0.040235     61.826865
 3.350000   0.043497    117.875368   0.999054     -2.365435   0.999054     -2.365435   0.043497     57.393763
 3.400000   0.046875    111.445082   0.998901     -7.780326   0.998901     -7.780326   0.046875     52.994267
 3.450000   0.050361    104.993346   0.998731    -13.195173   0.998731    -13.195173   0.050361     48.616308
 3.500000   0.053947     98.529667   0.998544    -18.609895   0.998544    -18.609895   0.053947     44.250543
 3.550000   0.057625     92.061422   0.998338    -24.024398   0.998338    -24.024398   0.057625     39.889781
 3.600000   0.061385     85.594295   0.998114    -29.438586   0.998114    -29.438586   0.061385     35.528533
 3.650000   0.065218     79.132635   0.997871    -34.852351   0.997871    -34.852351   0.065218     31.162663
 3.700000   0.069112     72.679726   0.997609    -40.265583   0.997609    -40.265583   0.069112     26.789108
 3.750000   0.073057     66.238009   0.997328    -45.678165   0.997328    -45.678165   0.073057     22.405660
 3.800000   0.077039     59.809249   0.997028    -51.089980   0.997028    -51.089980   0.077039     18.010792
 3.850000   0.081047     53.394679   0.996710    -56.500904   0.996710    -56.500904   0.081047     13.603513
 3.900000   0.085067     46.995102   0.996375    -61.910818   0.996375    -61.910818   0.085067      9.183262
 3.950000   0.089085     40.610983   0.996024    -67.319600   0.996024    -67.319600   0.089085      4.749816
 4.000000   0.093088     34.242515   0.995658    -72.727135   0.995658    -72.727135   0.093088      0.303215
 4.050000   0.097062     27.889675   0.995278    -78.133310   0.995278    -78.133310   0.097062     -4.156294
 4.100000   0.100992     21.552267   0.994887    -83.538019   0.994887    -83.538019   0.100992     -8.628305
 4.150000   0.104864     15.229957   0.994487    -88.941166   0.994487    -88.941166   0.104864    -13.112289
 4.200000   0.108664      8.922303   0.994079    -94.342664   0.994079    -94.342664   0.108664    -17.607631
 4.250000   0.112377      2.628770   0.993666    -99.742438   0.993666    -99.742438   0.112377    -22.113646
 4.300000   0.115990     -3.651244   0.993250   -105.140426   0.993250   -105.140426   0.115990    -26.629608
 4.350000   0.119488     -9.918405   0.992836   -110.536582   0.992836   -110.536582   0.119488    -31.154759
 4.400000   0.122859    -16.173422   0.992424   -115.930874   0.992424   -115.930874   0.122859    -35.688326
 4.450000   0.126088    -22.417048   0.992019   -121.323289   0.992019   -121.323289   0.126088    -40.229529
 4.500000   0.129164    -28.650068   0.991623   -126.713829   0.991623   -126.713829   0.129164    -44.777591
 4.550000   0.132075    -34.873295   0.991240   -132.102518   0.991240   -132.102518   0.132075    -49.331742
 4.600000   0.134808    -41.087569   0.990872   -137.489396   0.990872   -137.489396   0.134808    -53.891224
 4.650000   0.137352    -47.293753   0.990522   -142.874523   0.990522   -142.874523   0.137352    -58.455293
 4.700000   0.139699    -53.492728   0.990194   -148.257976   0.990194   -148.257976   0.139699    -63.023225
 4.750000   0.141837    -59.685394   0.989890   -153.639853   0.989890   -153.639853   0.141837    -67.594311
 4.800000   0.143759    -65.872670   0.989613   -159.020265   0.989613   -159.020265   0.143759    -72.167861
 4.850000   0.145456    -72.055485   0.989365   -164.399345   0.989365   -164.399345   0.145456    -76.743206
 4.900000   0.146921    -78.234787   0.989148   -169.777238   0.989148   -169.777238   0.146921    -81.319688
 4.950000   0.148148    -84.411535   0.988965   -175.154102   0.988965   -175.154102   0.148148    -85.896669
 5.000000   0.149132    -90.586698   0.988817    179.469890   0.988817    179.469890   0.149132    -90.473521
 5.050000   0.149869    -96.761258   0.988706    174.094557   0.988706    174.094557   0.149869    -95.049629
 5.100000   0.150354   -102.936202   0.988632    168.719707   0.988632    168.719707   0.150354    -99.624385
 5.150000   0.150586   -109.112527   0.988597    163.345143   0.988597    163.345143   0.150586   -104.197187
 5.200000   0.150563   -115.291235   0.988600    157.970665   0.988600    157.970665   0.150563   -108.767436
 5.250000   0.150284   -121.473329   0.988643    152.596068   0.988643    152.596068   0.150284   -113.334534
 5.300000   0.149750   -127.659817   0.988724    147.221150   0.988724    147.221150   0.149750   -117.897883
 5.350000   0.148962   -133.851701   0.988843    141.845712   0.988843    141.845712   0.148962   -122.456876
 5.400000   0.147924   -140.049983   0.988999    136.469556   0.988999    136.469556   0.147924   -127.010904
 5.450000   0.146637   -146.255655   0.989190    131.092497   0.989190    131.092497   0.146637   -131.559351
 5.500000   0.145107   -152.469701   0.989416    125.714354   0.989416    125.714354   0.145107   -136.101591
 5.550000   0.143340   -158.693087   0.989674    120.334960   0.989674    120.334960   0.143340   -140.636992
 5.600000   0.141341   -164.926759   0.989961    114.954163   0.989961    114.954163   0.141341   -145.164915
 5.650000   0.139118   -171.171640   0.990276    109.571821   0.990276    109.571821   0.139118   -149.684717
 5.700000   0.136679   -177.428617   0.990615    104.187813   0.990615    104.187813   0.136679   -154.195756
 5.750000   0.134033    176.301465   0.990977     98.802034   0.990977     98.802034   0.134033   -158.697397
 5.800000   0.131191    170.017811   0.991357     93.414396   0.991357     93.414396   0.131191   -163.189019
 5.850000   0.128162    163.719692   0.991753     88.024833   0.991753     88.024833   0.128162   -167.670027
 5.900000   0.124960    157.406459   0.992162     82.633296   0.992162     82.633296   0.124960   -172.139868
 5.950000   0.121595    151.077564   0.992580     77.239758   0.992580     77.239758   0.121595   -176.598048
 6.000000   0.118081    144.732580   0.993004     71.844210   0.993004     71.844210   0.118081    178.955840
 6.050000   0.114432    138.371236   0.993431     66.446664   0.993431     66.446664   0.114432    174.522091
 6.100000   0.110661    131.993450   0.993858     61.047148   0.993858     61.047148   0.110661    170.100846
 6.150000   0.106784    125.599377   0.994282     55.645710   0.994282     55.645710   0.106784    165.692043
 6.200000   0.102814    119.189466   0.994701     50.242412   0.994701     50.242412   0.102814    161.295358
 6.250000   0.098767    112.764531   0.995111     44.837332   0.995111     44.837332   0.098767    156.910133
 6.300000   0.094659    106.325843   0.995510     39.430561   0.995510     39.430561   0.094659    152.535278
 6.350000   0.090504     99.875242   0.995896     34.022200   0.995896     34.022200   0.090504    148.169158
 6.400000   0.086319     93.415278   0.996268     28.612360   0.996268     28.612360   0.086319    143.809443
 6.450000   0.082117     86.949390   0.996623     23.201160   0.996623     23.201160   0.082117    139.452930
 6.500000   0.077914     80.482133   0.996960     17.788722   0.996960     17.788722   0.077914    135.095310
 6.550000   0.073725     74.019463   0.997279     12.375171   0.997279     12.375171   0.073725    130.730879
 6.600000   0.069564     67.569100   0.997577      6.960634   0.997577      6.960634   0.069564    126.352169
 6.650000   0.065445     61.140999   0.997856      1.545237   0.997856      1.545237   0.065445    121.949475
 6.700000   0.061380     54.747941   0.998114     -3.870900   0.998114     -3.870900   0.061380    117.510260
 6.750000   0.057382     48.406313   0.998352     -9.287659   0.998352     -9.287659   0.057382    113.018369
 6.800000   0.053464     42.137114   0.998570    -14.704931   0.998570    -14.704931   0.053464    108.453023
 6.850000   0.049638     35.967271   0.998767    -20.122615   0.998767    -20.122615   0.049638    103.787499
 6.900000   0.045914     29.931371   0.998945    -25.540617   0.998945    -25.540617   0.045914     98.987396
 6.950000   0.042304     24.073928   0.999105    -30.958854   0.999105    -30.958854   0.042304     94.008363
 7.000000   0.038821     18.452356   0.999246    -36.377257   0.999246    -36.377257   0.038821     88.793131
 7.050000   0.035478     13.140774   0.999370    -41.795763   0.999370    -41.795763   0.035478     83.267701
 7.100000   0.032293      8.234687   0.999478    -47.214324   0.999478    -47.214324   0.032293     77.336666
 7.150000   0.029286      3.856193   0.999571    -52.632901   0.999571    -52.632901   0.029286     70.878005
 7.200000   0.026487      0.158323   0.999649    -58.051466   0.999649    -58.051466   0.026487     63.738744
 7.250000   0.023933     -2.675254   0.999714    -63.470002   0.999714    -63.470002   0.023933     55.735250
 7.300000   0.021680     -4.443690   0.999765    -68.888499   0.999765    -68.888499   0.021680     46.666691
 7.350000   0.019797     -4.970839   0.999804    -74.306956   0.999804    -74.306956   0.019797     36.356926
 7.400000   0.018372     -4.192487   0.999831    -79.725378   0.999831    -79.725378   0.018372     24.741731
 7.450000   0.017496     -2.280561   0.999847    -85.143774   0.999847    -85.143774   0.017496     11.993013
 7.500000   0.017240      0.274587   0.999851    -90.562157   0.999851    -90.562157   0.017240     -1.398901
 7.550000   0.017629      2.751088   0.999845    -95.980542   0.999845    -95.980542   0.017629    -14.712171
 7.600000   0.018625      4.457420   0.999827   -101.398942   0.999827   -101.398942   0.018625    -27.255304
 7.650000   0.020153      4.969317   0.999797   -106.817370   0.999797   -106.817370   0.020153    -38.604058
 7.700000   0.022119      4.173903   0.999755   -112.235835   0.999755   -112.235835   0.022119    -48.645574
 7.750000   0.024441      2.168191   0.999701   -117.654341   0.999701   -117.654341   0.024441    -57.476873
 7.800000   0.027049     -0.861050   0.999634   -123.072884   0.999634   -123.072884   0.027049    -65.284719
 7.850000   0.029894     -4.714313   0.999553   -128.491454   0.999553   -128.491454   0.029894    -72.268594
 7.900000   0.032940     -9.213798   0.999457   -133.910030   0.999457   -133.910030   0.032940    -78.606262
 7.950000   0.036160    -14.213107   0.999346   -139.328583   0.999346   -139.328583   0.036160    -84.444059
 8.000000   0.039533    -19.596081   0.999218   -144.747072   0.999218   -144.747072   0.039533    -89.898063
 8.050000   0.043043    -25.272074   0.999073   -150.165446   0.999073   -150.165446   0.043043    -95.058818
 8.100000   0.046677    -31.170790   0.998910   -155.583641   0.998910   -155.583641   0.046677    -99.996492
 8.150000   0.050424    -37.237776   0.998728   -161.001584   0.998728   -161.001584   0.050424   -104.765392
 8.200000   0.054270    -43.430795   0.998526   -166.419190   0.998526   -166.419190   0.054270   -109.407584
 8.250000   0.058206    -49.717018   0.998305   -171.836364   0.998305   -171.836364   0.058206   -113.955710
 8.300000   0.062218    -56.070875   0.998063   -177.253004   0.998063   -177.253004   0.062218   -118.435132
 8.350000   0.066295    -62.472419   0.997800    177.331003   0.997800    177.331003   0.066295   -122.865574
 8.400000   0.070425    -68.906087   0.997517    171.915774   0.997517    171.915774   0.070425   -127.262364
 8.450000   0.074593    -75.359740   0.997214    166.501432   0.997214    166.501432   0.074593   -131.637396
 8.500000   0.078786    -81.823932   0.996892    161.088102   0.996892    161.088102   0.078786   -135.999864
 8.550000   0.082989    -88.291344   0.996550    155.675910   0.996550    155.675910   0.082989   -140.356836
 8.600000   0.087189    -94.756336   0.996192    150.264982   0.996192    150.264982   0.087189   -144.713699
 8.650000   0.091369   -101.214608   0.995817    144.855440   0.995817    144.855440   0.091369   -149.074512
 8.700000   0.095516   -107.662921   0.995428    139.447400   0.995428    139.447400   0.095516   -153.442279
 8.750000   0.099613   -114.098885   0.995026    134.040972   0.995026    134.040972   0.099613   -157.819171
 8.800000   0.103645   -120.520790   0.994614    128.636255   0.994614    128.636255   0.103645   -162.206700
 8.850000   0.107597   -126.927469   0.994195    123.233337   0.994195    123.233337   0.107597   -166.605858
 8.900000   0.111453   -133.318188   0.993770    117.832293   0.993770    117.832293   0.111453   -171.017226
